
TB19C 000:057 SEGGER J-Link V6.00e Log File (0001ms, 0013ms total)
TB19C 000:057 DLL Compiled: Aug  4 2016 09:37:38 (0001ms, 0013ms total)
TB19C 000:057 Logging started @ 2022-04-07 00:39 (0001ms, 0013ms total)
TB19C 000:058 JLINK_SetWarnOutHandler(...) (0000ms, 0013ms total)
TB19C 000:058 JLINK_OpenEx(...)
Firmware: J-Link ARM-OB STM32 compiled Aug 22 2012 19:52:04
Hardware: V7.00
S/N: 20180706
Feature(s): RDI,FlashDL,FlashBP,JFlash,GDBFull  returns O.K. (0009ms, 0022ms total)
TB19C 000:067 JLINK_SetErrorOutHandler(...) (0000ms, 0022ms total)
TB19C 000:067 JLINK_ExecCommand("ProjectFile = "c:\Users\11048\Desktop\Small-TV progream\2022.4.6\smallntv\software\v3.2022.4.1\USER\JLinkSettings.ini"", ...).   returns 0x00 (0048ms, 0070ms total)
TB19C 000:116 JLINK_ExecCommand("Device = STM32F103C8", ...). Device "STM32F103C8" selected.  returns 0x00 (0000ms, 0071ms total)
TB19C 000:116 JLINK_ExecCommand("DisableConnectionTimeout", ...).   returns 0x01 (0000ms, 0071ms total)
TB19C 000:116 JLINK_GetHardwareVersion()  returns 0x11170 (0000ms, 0071ms total)
TB19C 000:116 JLINK_GetDLLVersion()  returns 60005 (0000ms, 0071ms total)
TB19C 000:116 JLINK_GetFirmwareString(...) (0000ms, 0071ms total)
TB19C 000:117 JLINK_GetDLLVersion()  returns 60005 (0000ms, 0071ms total)
TB19C 000:117 JLINK_GetCompileDateTime() (0000ms, 0071ms total)
TB19C 000:117 JLINK_GetFirmwareString(...) (0000ms, 0071ms total)
TB19C 000:117 JLINK_GetHardwareVersion()  returns 0x11170 (0000ms, 0071ms total)
TB19C 000:118 JLINK_TIF_Select(JLINKARM_TIF_SWD)  returns 0x00 (0000ms, 0071ms total)
TB19C 000:118 JLINK_SetSpeed(5000) (0000ms, 0071ms total)
TB19C 000:118 JLINK_GetId() >0x108 TIF>Found SWD-DP with ID 0x1BA01477 >0x0D TIF> >0x28 TIF> >0x0D TIF> >0x28 TIF> >0x0D TIF> >0x28 TIF> >0x0D TIF> >0x28 TIF> >0x0D TIF> >0x21 TIF> >0x0D TIF> >0x28 TIF> >0x0D TIF> >0x28 TIF> >0x0D TIF> >0x28 TIF> >0x0D TIF> >0x21 TIF> >0x0D TIF> >0x21 TIF> >0x0D TIF> >0x28 TIF> >0x0D TIF> >0x21 TIF> >0x0D TIF> >0x21 TIF> >0x0D TIF> >0x28 TIF> >0x0D TIF> >0x21 TIF> >0x0D TIF> >0x21 TIF> >0x0D TIF> >0x28 TIF> >0x0D TIF> >0x21 TIF> >0x0D TIF> >0x21 TIF> >0x0D TIF>
 >0x28 TIF> >0x0D TIF> >0x21 TIF> >0x0D TIF> >0x21 TIF> >0x0D TIF> >0x28 TIF> >0x0D TIF> >0x21 TIF> >0x0D TIF> >0x21 TIF> >0x0D TIF> >0x28 TIF> >0x0D TIF> >0x21 TIF> >0x0D TIF> >0x21 TIF> >0x108 TIF>Found SWD-DP with ID 0x1BA01477 >0x0D TIF> >0x28 TIF> >0x0D TIF> >0x28 TIF> >0x0D TIF> >0x28 TIF> >0x0D TIF> >0x28 TIF> >0x0D TIF> >0x21 TIF> >0x0D TIF> >0x28 TIF> >0x0D TIF> >0x28 TIF> >0x0D TIF> >0x21 TIF> >0x0D TIF> >0x21 TIF> >0x0D TIF> >0x21 TIF>AP-IDR: 0x14770011, Type: AHB-AP >0x0D TIF> >0x28 TIF>
 >0x0D TIF> >0x28 TIF> >0x0D TIF> >0x28 TIF> >0x0D TIF> >0x21 TIF> >0x0D TIF> >0x21 TIF> >0x0D TIF> >0x28 TIF> >0x0D TIF> >0x21 TIF> >0x0D TIF> >0x21 TIF>Found Cortex-M3 r1p1, Little endian. -- CPU_ReadMem(4 bytes @ 0xE000EDF0) -- CPU_ReadMem(4 bytes @ 0xE0002000)FPUnit: 6 code (BP) slots and 2 literal slots -- CPU_ReadMem(4 bytes @ 0xE000EDFC) -- CPU_ReadMem(4 bytes @ 0xE0001000) -- CPU_WriteMem(4 bytes @ 0xE0001000) -- CPU_ReadMem(4 bytes @ 0xE000ED88) -- CPU_WriteMem(4 bytes @ 0xE000ED88)
 -- CPU_ReadMem(4 bytes @ 0xE000ED88) -- CPU_WriteMem(4 bytes @ 0xE000ED88)CoreSight components:ROMTbl 0 @ E00FF000 -- CPU_ReadMem(16 bytes @ 0xE00FF000) -- CPU_ReadMem(16 bytes @ 0xE000EFF0) -- CPU_ReadMem(16 bytes @ 0xE000EFE0)ROMTbl 0 [0]: FFF0F000, CID: B105E00D, PID: 001BB000 SCS -- CPU_ReadMem(16 bytes @ 0xE0001FF0) -- CPU_ReadMem(16 bytes @ 0xE0001FE0)ROMTbl 0 [1]: FFF02000, CID: B105E00D, PID: 001BB002 DWT -- CPU_ReadMem(16 bytes @ 0xE0002FF0) -- CPU_ReadMem(16 bytes @ 0xE0002FE0)
ROMTbl 0 [2]: FFF03000, CID: B105E00D, PID: 000BB003 FPB -- CPU_ReadMem(16 bytes @ 0xE0000FF0) -- CPU_ReadMem(16 bytes @ 0xE0000FE0)ROMTbl 0 [3]: FFF01000, CID: B105E00D, PID: 001BB001 ITM -- CPU_ReadMem(16 bytes @ 0xE00FF010) -- CPU_ReadMem(16 bytes @ 0xE0040FF0) -- CPU_ReadMem(16 bytes @ 0xE0040FE0)ROMTbl 0 [4]: FFF41000, CID: B105900D, PID: 001BB923 TPIU-Lite >0x0D TIF> >0x21 TIF>  returns 0x1BA01477 (0029ms, 0100ms total)
TB19C 000:147 JLINK_GetDLLVersion()  returns 60005 (0000ms, 0100ms total)
TB19C 000:147 JLINK_CORE_GetFound()  returns 0x30000FF (0000ms, 0100ms total)
TB19C 000:147 JLINK_GetDebugInfo(0x100) -- Value=0xE00FF000  returns 0x00 (0000ms, 0100ms total)
TB19C 000:147 JLINK_GetDebugInfo(0x100) -- Value=0xE00FF000  returns 0x00 (0000ms, 0100ms total)
TB19C 000:147 JLINK_GetDebugInfo(0x101) -- Value=0x00000000  returns 0x00 (0000ms, 0100ms total)
TB19C 000:147 JLINK_ReadMem (0xE0041FF0, 0x0010 Bytes, ...) -- CPU is running -- CPU_ReadMem(16 bytes @ 0xE0041FF0) - Data: 00 00 00 00 00 00 00 00 00 00 00 00 00 00 00 00  returns 0x00 (0001ms, 0101ms total)
TB19C 000:148 JLINK_GetDebugInfo(0x102) -- Value=0x00000000  returns 0x00 (0000ms, 0101ms total)
TB19C 000:148 JLINK_GetDebugInfo(0x103) -- Value=0xE0040000  returns 0x00 (0000ms, 0101ms total)
TB19C 000:148 JLINK_GetDebugInfo(0x104) -- Value=0xE0000000  returns 0x00 (0000ms, 0101ms total)
TB19C 000:148 JLINK_GetDebugInfo(0x105) -- Value=0xE0001000  returns 0x00 (0000ms, 0101ms total)
TB19C 000:148 JLINK_GetDebugInfo(0x106) -- Value=0xE0002000  returns 0x00 (0000ms, 0101ms total)
TB19C 000:148 JLINK_GetDebugInfo(0x107) -- Value=0xE000E000  returns 0x00 (0000ms, 0101ms total)
TB19C 000:148 JLINK_GetDebugInfo(0x10C) -- Value=0xE000EDF0  returns 0x00 (0000ms, 0101ms total)
TB19C 000:148 JLINK_ReadMemU32(0xE000ED00, 0x0001 Items, ...) -- CPU is running -- CPU_ReadMem(4 bytes @ 0xE000ED00) - Data: 31 C2 1F 41  returns 0x01 (0001ms, 0102ms total)
TB19C 000:149 JLINK_SetResetType(JLINKARM_RESET_TYPE_NORMAL)  returns JLINKARM_RESET_TYPE_NORMAL (0000ms, 0102ms total)
TB19C 000:149 JLINK_Reset() -- CPU is running -- CPU_WriteMem(4 bytes @ 0xE000EDF0) -- CPU is running -- CPU_WriteMem(4 bytes @ 0xE000EDFC) >0x35 TIF> -- CPU is running -- CPU_WriteMem(4 bytes @ 0xE000ED0C) -- CPU is running -- CPU_ReadMem(4 bytes @ 0xE000EDF0) -- CPU is running -- CPU_ReadMem(4 bytes @ 0xE000EDF0) -- CPU is running -- CPU_WriteMem(4 bytes @ 0xE000EDF0) -- CPU is running -- CPU_WriteMem(4 bytes @ 0xE000EDFC) -- CPU is running -- CPU_ReadMem(4 bytes @ 0xE000EDF0)
 -- CPU_WriteMem(4 bytes @ 0xE0002000) -- CPU_ReadMem(4 bytes @ 0xE000EDFC) -- CPU_ReadMem(4 bytes @ 0xE0001000) (0018ms, 0120ms total)
TB19C 000:167 JLINK_Halt()  returns 0x00 (0000ms, 0120ms total)
TB19C 000:167 JLINK_IsHalted()  returns TRUE (0000ms, 0120ms total)
TB19C 000:167 JLINK_ReadMemU32(0xE000EDF0, 0x0001 Items, ...) -- CPU_ReadMem(4 bytes @ 0xE000EDF0) - Data: 03 00 03 00  returns 0x01 (0001ms, 0121ms total)
TB19C 000:168 JLINK_WriteU32(0xE000EDF0, 0xA05F0003) -- CPU_WriteMem(4 bytes @ 0xE000EDF0)  returns 0x00 (0000ms, 0121ms total)
TB19C 000:168 JLINK_WriteU32(0xE000EDFC, 0x01000000) -- CPU_WriteMem(4 bytes @ 0xE000EDFC)  returns 0x00 (0000ms, 0121ms total)
TB19C 000:169 JLINK_GetHWStatus(...)  returns 0x00 (0000ms, 0121ms total)
TB19C 000:169 JLINK_GetNumBPUnits(Type = 0xFFFFFF00)  returns 0x06 (0000ms, 0121ms total)
TB19C 000:169 JLINK_GetNumBPUnits(Type = 0xF0)  returns 0x2000 (0000ms, 0121ms total)
TB19C 000:169 JLINK_GetNumWPUnits()  returns 0x04 (0000ms, 0121ms total)
TB19C 000:170 JLINK_GetSpeed()  returns 0xFA0 (0000ms, 0121ms total)
TB19C 000:170 JLINK_ReadMemU32(0xE000E004, 0x0001 Items, ...) -- CPU_ReadMem(4 bytes @ 0xE000E004) - Data: 01 00 00 00  returns 0x01 (0001ms, 0122ms total)
TB19C 000:171 JLINK_ReadMemU32(0xE000E004, 0x0001 Items, ...) -- CPU_ReadMem(4 bytes @ 0xE000E004) - Data: 01 00 00 00  returns 0x01 (0000ms, 0122ms total)
TB19C 000:171 JLINK_WriteMem(0xE0001000, 0x001C Bytes, ...) - Data: 01 00 00 00 00 00 00 00 00 00 00 00 00 00 00 00 ... -- CPU_WriteMem(28 bytes @ 0xE0001000)  returns 0x1C (0001ms, 0123ms total)
TB19C 000:172 JLINK_ReadMem (0xE0001000, 0x001C Bytes, ...) -- CPU_ReadMem(28 bytes @ 0xE0001000) - Data: 01 00 00 40 00 00 00 00 00 00 00 00 00 00 00 00 ...  returns 0x00 (0001ms, 0124ms total)
TB19C 000:173 JLINK_Halt()  returns 0x00 (0000ms, 0124ms total)
TB19C 000:173 JLINK_IsHalted()  returns TRUE (0000ms, 0124ms total)
TB19C 000:174 JLINK_WriteMem(0x20000000, 0x0164 Bytes, ...) - Data: 00 BE 0A E0 0D 78 2D 06 68 40 08 24 40 00 00 D3 ... -- CPU_WriteMem(356 bytes @ 0x20000000)  returns 0x164 (0005ms, 0129ms total)
TB19C 000:179 JLINK_WriteReg(R0, 0x08000000)  returns 0x00 (0000ms, 0129ms total)
TB19C 000:179 JLINK_WriteReg(R1, 0x00B71B00)  returns 0x00 (0000ms, 0129ms total)
TB19C 000:179 JLINK_WriteReg(R2, 0x00000001)  returns 0x00 (0000ms, 0129ms total)
TB19C 000:179 JLINK_WriteReg(R3, 0x00000000)  returns 0x00 (0000ms, 0129ms total)
TB19C 000:179 JLINK_WriteReg(R4, 0x00000000)  returns 0x00 (0000ms, 0129ms total)
TB19C 000:179 JLINK_WriteReg(R5, 0x00000000)  returns 0x00 (0000ms, 0129ms total)
TB19C 000:179 JLINK_WriteReg(R6, 0x00000000)  returns 0x00 (0000ms, 0129ms total)
TB19C 000:179 JLINK_WriteReg(R7, 0x00000000)  returns 0x00 (0000ms, 0129ms total)
TB19C 000:179 JLINK_WriteReg(R8, 0x00000000)  returns 0x00 (0000ms, 0129ms total)
TB19C 000:179 JLINK_WriteReg(R9, 0x20000160)  returns 0x00 (0000ms, 0129ms total)
TB19C 000:179 JLINK_WriteReg(R10, 0x00000000)  returns 0x00 (0000ms, 0129ms total)
TB19C 000:179 JLINK_WriteReg(R11, 0x00000000)  returns 0x00 (0000ms, 0129ms total)
TB19C 000:179 JLINK_WriteReg(R12, 0x00000000)  returns 0x00 (0000ms, 0129ms total)
TB19C 000:179 JLINK_WriteReg(R13 (SP), 0x20001000)  returns 0x00 (0000ms, 0129ms total)
TB19C 000:179 JLINK_WriteReg(R14, 0x20000001)  returns 0x00 (0000ms, 0129ms total)
TB19C 000:179 JLINK_WriteReg(R15 (PC), 0x20000038)  returns 0x00 (0000ms, 0129ms total)
TB19C 000:179 JLINK_WriteReg(XPSR, 0x01000000)  returns 0x00 (0000ms, 0129ms total)
TB19C 000:179 JLINK_WriteReg(MSP, 0x20001000)  returns 0x00 (0000ms, 0129ms total)
TB19C 000:179 JLINK_WriteReg(PSP, 0x20001000)  returns 0x00 (0000ms, 0129ms total)
TB19C 000:179 JLINK_WriteReg(CFBP, 0x00000000)  returns 0x00 (0001ms, 0130ms total)
TB19C 000:180 JLINK_SetBPEx(Addr = 0x20000000, Type = 0xFFFFFFF2) -- CPU_ReadMem(2 bytes @ 0x20000000)  returns 0x00000001 (0000ms, 0130ms total)
TB19C 000:180 JLINK_Go() -- CPU_WriteMem(2 bytes @ 0x20000000) -- CPU_ReadMem(4 bytes @ 0xE0001000) -- CPU_WriteMem(4 bytes @ 0xE0002008) -- CPU_WriteMem(4 bytes @ 0xE000200C) -- CPU_WriteMem(4 bytes @ 0xE0002010) -- CPU_WriteMem(4 bytes @ 0xE0002014) -- CPU_WriteMem(4 bytes @ 0xE0002018) -- CPU_WriteMem(4 bytes @ 0xE000201C) -- CPU_WriteMem(4 bytes @ 0xE0001004) (0006ms, 0136ms total)
TB19C 000:186 JLINK_IsHalted() -- CPU_ReadMem(2 bytes @ 0x20000000)  returns TRUE (0003ms, 0139ms total)
TB19C 000:189 JLINK_ReadReg(R15 (PC))  returns 0x20000000 (0000ms, 0136ms total)
TB19C 000:189 JLINK_ClrBPEx(BPHandle = 0x00000001)  returns 0x00 (0000ms, 0136ms total)
TB19C 000:189 JLINK_ReadReg(R0)  returns 0x00000000 (0000ms, 0136ms total)
TB19C 000:189 JLINK_WriteReg(R0, 0x08000000)  returns 0x00 (0000ms, 0136ms total)
TB19C 000:189 JLINK_WriteReg(R1, 0x00B71B00)  returns 0x00 (0000ms, 0136ms total)
TB19C 000:189 JLINK_WriteReg(R2, 0x00000001)  returns 0x00 (0000ms, 0136ms total)
TB19C 000:189 JLINK_WriteReg(R3, 0x00000000)  returns 0x00 (0000ms, 0136ms total)
TB19C 000:189 JLINK_WriteReg(R4, 0x00000000)  returns 0x00 (0001ms, 0137ms total)
TB19C 000:190 JLINK_WriteReg(R5, 0x00000000)  returns 0x00 (0000ms, 0137ms total)
TB19C 000:190 JLINK_WriteReg(R6, 0x00000000)  returns 0x00 (0000ms, 0137ms total)
TB19C 000:190 JLINK_WriteReg(R7, 0x00000000)  returns 0x00 (0000ms, 0137ms total)
TB19C 000:190 JLINK_WriteReg(R8, 0x00000000)  returns 0x00 (0000ms, 0137ms total)
TB19C 000:190 JLINK_WriteReg(R9, 0x20000160)  returns 0x00 (0000ms, 0137ms total)
TB19C 000:190 JLINK_WriteReg(R10, 0x00000000)  returns 0x00 (0000ms, 0137ms total)
TB19C 000:190 JLINK_WriteReg(R11, 0x00000000)  returns 0x00 (0000ms, 0137ms total)
TB19C 000:190 JLINK_WriteReg(R12, 0x00000000)  returns 0x00 (0000ms, 0137ms total)
TB19C 000:190 JLINK_WriteReg(R13 (SP), 0x20001000)  returns 0x00 (0000ms, 0137ms total)
TB19C 000:190 JLINK_WriteReg(R14, 0x20000001)  returns 0x00 (0000ms, 0137ms total)
TB19C 000:190 JLINK_WriteReg(R15 (PC), 0x2000007C)  returns 0x00 (0000ms, 0137ms total)
TB19C 000:190 JLINK_WriteReg(XPSR, 0x01000000)  returns 0x00 (0000ms, 0137ms total)
TB19C 000:190 JLINK_WriteReg(MSP, 0x20001000)  returns 0x00 (0000ms, 0137ms total)
TB19C 000:190 JLINK_WriteReg(PSP, 0x20001000)  returns 0x00 (0000ms, 0137ms total)
TB19C 000:190 JLINK_WriteReg(CFBP, 0x00000000)  returns 0x00 (0000ms, 0137ms total)
TB19C 000:190 JLINK_SetBPEx(Addr = 0x20000000, Type = 0xFFFFFFF2)  returns 0x00000002 (0001ms, 0138ms total)
TB19C 000:191 JLINK_Go() -- CPU_ReadMem(4 bytes @ 0xE0001000) (0001ms, 0139ms total)
TB19C 000:192 JLINK_IsHalted()  returns FALSE (0001ms, 0140ms total)
TB19C 000:221 JLINK_IsHalted() -- CPU_ReadMem(2 bytes @ 0x20000000)  returns TRUE (0004ms, 0143ms total)
TB19C 000:225 JLINK_ReadReg(R15 (PC))  returns 0x20000000 (0000ms, 0139ms total)
TB19C 000:225 JLINK_ClrBPEx(BPHandle = 0x00000002)  returns 0x00 (0000ms, 0139ms total)
TB19C 000:225 JLINK_ReadReg(R0)  returns 0x00000000 (0000ms, 0139ms total)
TB19C 000:275 JLINK_WriteReg(R0, 0x00000001)  returns 0x00 (0000ms, 0139ms total)
TB19C 000:275 JLINK_WriteReg(R1, 0x00B71B00)  returns 0x00 (0000ms, 0139ms total)
TB19C 000:275 JLINK_WriteReg(R2, 0x00000001)  returns 0x00 (0000ms, 0139ms total)
TB19C 000:275 JLINK_WriteReg(R3, 0x00000000)  returns 0x00 (0000ms, 0139ms total)
TB19C 000:275 JLINK_WriteReg(R4, 0x00000000)  returns 0x00 (0000ms, 0139ms total)
TB19C 000:275 JLINK_WriteReg(R5, 0x00000000)  returns 0x00 (0000ms, 0139ms total)
TB19C 000:275 JLINK_WriteReg(R6, 0x00000000)  returns 0x00 (0000ms, 0139ms total)
TB19C 000:275 JLINK_WriteReg(R7, 0x00000000)  returns 0x00 (0000ms, 0139ms total)
TB19C 000:275 JLINK_WriteReg(R8, 0x00000000)  returns 0x00 (0000ms, 0139ms total)
TB19C 000:275 JLINK_WriteReg(R9, 0x20000160)  returns 0x00 (0000ms, 0139ms total)
TB19C 000:275 JLINK_WriteReg(R10, 0x00000000)  returns 0x00 (0001ms, 0140ms total)
TB19C 000:276 JLINK_WriteReg(R11, 0x00000000)  returns 0x00 (0000ms, 0140ms total)
TB19C 000:276 JLINK_WriteReg(R12, 0x00000000)  returns 0x00 (0000ms, 0140ms total)
TB19C 000:276 JLINK_WriteReg(R13 (SP), 0x20001000)  returns 0x00 (0000ms, 0140ms total)
TB19C 000:276 JLINK_WriteReg(R14, 0x20000001)  returns 0x00 (0000ms, 0140ms total)
TB19C 000:276 JLINK_WriteReg(R15 (PC), 0x2000006A)  returns 0x00 (0000ms, 0140ms total)
TB19C 000:276 JLINK_WriteReg(XPSR, 0x01000000)  returns 0x00 (0000ms, 0140ms total)
TB19C 000:276 JLINK_WriteReg(MSP, 0x20001000)  returns 0x00 (0000ms, 0140ms total)
TB19C 000:276 JLINK_WriteReg(PSP, 0x20001000)  returns 0x00 (0000ms, 0140ms total)
TB19C 000:276 JLINK_WriteReg(CFBP, 0x00000000)  returns 0x00 (0000ms, 0140ms total)
TB19C 000:276 JLINK_SetBPEx(Addr = 0x20000000, Type = 0xFFFFFFF2)  returns 0x00000003 (0000ms, 0140ms total)
TB19C 000:276 JLINK_Go() -- CPU_ReadMem(4 bytes @ 0xE0001000) (0002ms, 0142ms total)
TB19C 000:278 JLINK_IsHalted() -- CPU_ReadMem(2 bytes @ 0x20000000)  returns TRUE (0003ms, 0145ms total)
TB19C 000:281 JLINK_ReadReg(R15 (PC))  returns 0x20000000 (0001ms, 0143ms total)
TB19C 000:282 JLINK_ClrBPEx(BPHandle = 0x00000003)  returns 0x00 (0000ms, 0143ms total)
TB19C 000:282 JLINK_ReadReg(R0)  returns 0x00000000 (0000ms, 0143ms total)
TB19C 000:284 JLINK_WriteMem(0x20000000, 0x0164 Bytes, ...) - Data: 00 BE 0A E0 0D 78 2D 06 68 40 08 24 40 00 00 D3 ... -- CPU_WriteMem(356 bytes @ 0x20000000)  returns 0x164 (0004ms, 0147ms total)
TB19C 000:288 JLINK_WriteReg(R0, 0x08000000)  returns 0x00 (0000ms, 0147ms total)
TB19C 000:288 JLINK_WriteReg(R1, 0x00B71B00)  returns 0x00 (0000ms, 0147ms total)
TB19C 000:288 JLINK_WriteReg(R2, 0x00000002)  returns 0x00 (0000ms, 0147ms total)
TB19C 000:288 JLINK_WriteReg(R3, 0x00000000)  returns 0x00 (0000ms, 0147ms total)
TB19C 000:288 JLINK_WriteReg(R4, 0x00000000)  returns 0x00 (0001ms, 0148ms total)
TB19C 000:289 JLINK_WriteReg(R5, 0x00000000)  returns 0x00 (0000ms, 0148ms total)
TB19C 000:289 JLINK_WriteReg(R6, 0x00000000)  returns 0x00 (0000ms, 0148ms total)
TB19C 000:289 JLINK_WriteReg(R7, 0x00000000)  returns 0x00 (0000ms, 0148ms total)
TB19C 000:289 JLINK_WriteReg(R8, 0x00000000)  returns 0x00 (0000ms, 0148ms total)
TB19C 000:289 JLINK_WriteReg(R9, 0x20000160)  returns 0x00 (0000ms, 0148ms total)
TB19C 000:289 JLINK_WriteReg(R10, 0x00000000)  returns 0x00 (0000ms, 0148ms total)
TB19C 000:289 JLINK_WriteReg(R11, 0x00000000)  returns 0x00 (0000ms, 0148ms total)
TB19C 000:289 JLINK_WriteReg(R12, 0x00000000)  returns 0x00 (0000ms, 0148ms total)
TB19C 000:289 JLINK_WriteReg(R13 (SP), 0x20001000)  returns 0x00 (0000ms, 0148ms total)
TB19C 000:289 JLINK_WriteReg(R14, 0x20000001)  returns 0x00 (0000ms, 0148ms total)
TB19C 000:289 JLINK_WriteReg(R15 (PC), 0x20000038)  returns 0x00 (0000ms, 0148ms total)
TB19C 000:289 JLINK_WriteReg(XPSR, 0x01000000)  returns 0x00 (0000ms, 0148ms total)
TB19C 000:289 JLINK_WriteReg(MSP, 0x20001000)  returns 0x00 (0000ms, 0148ms total)
TB19C 000:289 JLINK_WriteReg(PSP, 0x20001000)  returns 0x00 (0001ms, 0149ms total)
TB19C 000:290 JLINK_WriteReg(CFBP, 0x00000000)  returns 0x00 (0000ms, 0149ms total)
TB19C 000:290 JLINK_SetBPEx(Addr = 0x20000000, Type = 0xFFFFFFF2) -- CPU_ReadMem(2 bytes @ 0x20000000)  returns 0x00000004 (0000ms, 0149ms total)
TB19C 000:290 JLINK_Go() -- CPU_WriteMem(2 bytes @ 0x20000000) -- CPU_ReadMem(4 bytes @ 0xE0001000) (0002ms, 0151ms total)
TB19C 000:292 JLINK_IsHalted() -- CPU_ReadMem(2 bytes @ 0x20000000)  returns TRUE (0004ms, 0155ms total)
TB19C 000:296 JLINK_ReadReg(R15 (PC))  returns 0x20000000 (0000ms, 0151ms total)
TB19C 000:296 JLINK_ClrBPEx(BPHandle = 0x00000004)  returns 0x00 (0000ms, 0151ms total)
TB19C 000:296 JLINK_ReadReg(R0)  returns 0x00000000 (0000ms, 0151ms total)
TB19C 000:296 JLINK_WriteMem(0x20000164, 0x0400 Bytes, ...) - Data: 08 41 00 20 81 02 00 08 8B 12 00 08 5F 12 00 08 ... -- CPU_WriteMem(1024 bytes @ 0x20000164)  returns 0x400 (0012ms, 0163ms total)
TB19C 000:308 JLINK_WriteReg(R0, 0x08000000)  returns 0x00 (0000ms, 0163ms total)
TB19C 000:308 JLINK_WriteReg(R1, 0x00000400)  returns 0x00 (0001ms, 0164ms total)
TB19C 000:309 JLINK_WriteReg(R2, 0x20000164)  returns 0x00 (0000ms, 0164ms total)
TB19C 000:309 JLINK_WriteReg(R3, 0x00000000)  returns 0x00 (0000ms, 0164ms total)
TB19C 000:309 JLINK_WriteReg(R4, 0x00000000)  returns 0x00 (0000ms, 0164ms total)
TB19C 000:309 JLINK_WriteReg(R5, 0x00000000)  returns 0x00 (0000ms, 0164ms total)
TB19C 000:309 JLINK_WriteReg(R6, 0x00000000)  returns 0x00 (0000ms, 0164ms total)
TB19C 000:309 JLINK_WriteReg(R7, 0x00000000)  returns 0x00 (0000ms, 0164ms total)
TB19C 000:309 JLINK_WriteReg(R8, 0x00000000)  returns 0x00 (0000ms, 0164ms total)
TB19C 000:309 JLINK_WriteReg(R9, 0x20000160)  returns 0x00 (0000ms, 0164ms total)
TB19C 000:309 JLINK_WriteReg(R10, 0x00000000)  returns 0x00 (0000ms, 0164ms total)
TB19C 000:309 JLINK_WriteReg(R11, 0x00000000)  returns 0x00 (0000ms, 0164ms total)
TB19C 000:309 JLINK_WriteReg(R12, 0x00000000)  returns 0x00 (0000ms, 0164ms total)
TB19C 000:309 JLINK_WriteReg(R13 (SP), 0x20001000)  returns 0x00 (0000ms, 0164ms total)
TB19C 000:309 JLINK_WriteReg(R14, 0x20000001)  returns 0x00 (0000ms, 0164ms total)
TB19C 000:309 JLINK_WriteReg(R15 (PC), 0x200000F4)  returns 0x00 (0000ms, 0164ms total)
TB19C 000:309 JLINK_WriteReg(XPSR, 0x01000000)  returns 0x00 (0000ms, 0164ms total)
TB19C 000:310 JLINK_WriteReg(MSP, 0x20001000)  returns 0x00 (0000ms, 0165ms total)
TB19C 000:310 JLINK_WriteReg(PSP, 0x20001000)  returns 0x00 (0000ms, 0165ms total)
TB19C 000:310 JLINK_WriteReg(CFBP, 0x00000000)  returns 0x00 (0000ms, 0165ms total)
TB19C 000:310 JLINK_SetBPEx(Addr = 0x20000000, Type = 0xFFFFFFF2)  returns 0x00000005 (0000ms, 0165ms total)
TB19C 000:310 JLINK_Go() -- CPU_ReadMem(4 bytes @ 0xE0001000) (0002ms, 0167ms total)
TB19C 000:312 JLINK_IsHalted()  returns FALSE (0000ms, 0167ms total)
TB19C 000:314 JLINK_IsHalted()  returns FALSE (0001ms, 0168ms total)
TB19C 000:317 JLINK_IsHalted()  returns FALSE (0000ms, 0167ms total)
TB19C 000:319 JLINK_IsHalted()  returns FALSE (0000ms, 0167ms total)
TB19C 000:321 JLINK_IsHalted()  returns FALSE (0000ms, 0167ms total)
TB19C 000:323 JLINK_IsHalted()  returns FALSE (0000ms, 0167ms total)
TB19C 000:325 JLINK_IsHalted()  returns FALSE (0001ms, 0168ms total)
TB19C 000:328 JLINK_IsHalted()  returns FALSE (0000ms, 0167ms total)
TB19C 000:330 JLINK_IsHalted()  returns FALSE (0000ms, 0167ms total)
TB19C 000:332 JLINK_IsHalted()  returns FALSE (0000ms, 0167ms total)
TB19C 000:334 JLINK_IsHalted()  returns FALSE (0000ms, 0167ms total)
TB19C 000:336 JLINK_IsHalted()  returns FALSE (0000ms, 0167ms total)
TB19C 000:338 JLINK_IsHalted()  returns FALSE (0000ms, 0167ms total)
TB19C 000:340 JLINK_IsHalted()  returns FALSE (0000ms, 0167ms total)
TB19C 000:342 JLINK_IsHalted()  returns FALSE (0000ms, 0167ms total)
TB19C 000:344 JLINK_IsHalted() -- CPU_ReadMem(2 bytes @ 0x20000000)  returns TRUE (0003ms, 0170ms total)
TB19C 000:347 JLINK_ReadReg(R15 (PC))  returns 0x20000000 (0000ms, 0167ms total)
TB19C 000:347 JLINK_ClrBPEx(BPHandle = 0x00000005)  returns 0x00 (0000ms, 0167ms total)
TB19C 000:347 JLINK_ReadReg(R0)  returns 0x00000000 (0000ms, 0167ms total)
TB19C 000:347 JLINK_WriteMem(0x20000164, 0x0400 Bytes, ...) - Data: F6 D5 70 BD 70 B5 04 46 85 69 00 78 C0 07 07 D1 ... -- CPU_WriteMem(1024 bytes @ 0x20000164)  returns 0x400 (0013ms, 0180ms total)
TB19C 000:360 JLINK_WriteReg(R0, 0x08000400)  returns 0x00 (0000ms, 0180ms total)
TB19C 000:360 JLINK_WriteReg(R1, 0x00000400)  returns 0x00 (0000ms, 0180ms total)
TB19C 000:360 JLINK_WriteReg(R2, 0x20000164)  returns 0x00 (0000ms, 0180ms total)
TB19C 000:360 JLINK_WriteReg(R3, 0x00000000)  returns 0x00 (0000ms, 0180ms total)
TB19C 000:360 JLINK_WriteReg(R4, 0x00000000)  returns 0x00 (0000ms, 0180ms total)
TB19C 000:360 JLINK_WriteReg(R5, 0x00000000)  returns 0x00 (0000ms, 0180ms total)
TB19C 000:360 JLINK_WriteReg(R6, 0x00000000)  returns 0x00 (0000ms, 0180ms total)
TB19C 000:360 JLINK_WriteReg(R7, 0x00000000)  returns 0x00 (0000ms, 0180ms total)
TB19C 000:360 JLINK_WriteReg(R8, 0x00000000)  returns 0x00 (0000ms, 0180ms total)
TB19C 000:361 JLINK_WriteReg(R9, 0x20000160)  returns 0x00 (0000ms, 0181ms total)
TB19C 000:361 JLINK_WriteReg(R10, 0x00000000)  returns 0x00 (0000ms, 0181ms total)
TB19C 000:361 JLINK_WriteReg(R11, 0x00000000)  returns 0x00 (0000ms, 0181ms total)
TB19C 000:361 JLINK_WriteReg(R12, 0x00000000)  returns 0x00 (0000ms, 0181ms total)
TB19C 000:361 JLINK_WriteReg(R13 (SP), 0x20001000)  returns 0x00 (0000ms, 0181ms total)
TB19C 000:361 JLINK_WriteReg(R14, 0x20000001)  returns 0x00 (0000ms, 0181ms total)
TB19C 000:361 JLINK_WriteReg(R15 (PC), 0x200000F4)  returns 0x00 (0000ms, 0181ms total)
TB19C 000:361 JLINK_WriteReg(XPSR, 0x01000000)  returns 0x00 (0000ms, 0181ms total)
TB19C 000:361 JLINK_WriteReg(MSP, 0x20001000)  returns 0x00 (0000ms, 0181ms total)
TB19C 000:361 JLINK_WriteReg(PSP, 0x20001000)  returns 0x00 (0000ms, 0181ms total)
TB19C 000:361 JLINK_WriteReg(CFBP, 0x00000000)  returns 0x00 (0000ms, 0181ms total)
TB19C 000:361 JLINK_SetBPEx(Addr = 0x20000000, Type = 0xFFFFFFF2)  returns 0x00000006 (0000ms, 0181ms total)
TB19C 000:361 JLINK_Go() -- CPU_ReadMem(4 bytes @ 0xE0001000) (0003ms, 0184ms total)
TB19C 000:364 JLINK_IsHalted()  returns FALSE (0000ms, 0184ms total)
TB19C 000:366 JLINK_IsHalted()  returns FALSE (0000ms, 0184ms total)
TB19C 000:368 JLINK_IsHalted()  returns FALSE (0001ms, 0185ms total)
TB19C 000:371 JLINK_IsHalted()  returns FALSE (0000ms, 0184ms total)
TB19C 000:373 JLINK_IsHalted()  returns FALSE (0000ms, 0184ms total)
TB19C 000:375 JLINK_IsHalted()  returns FALSE (0000ms, 0184ms total)
TB19C 000:377 JLINK_IsHalted()  returns FALSE (0000ms, 0184ms total)
TB19C 000:379 JLINK_IsHalted()  returns FALSE (0000ms, 0184ms total)
TB19C 000:381 JLINK_IsHalted()  returns FALSE (0000ms, 0184ms total)
TB19C 000:383 JLINK_IsHalted()  returns FALSE (0000ms, 0184ms total)
TB19C 000:385 JLINK_IsHalted()  returns FALSE (0000ms, 0184ms total)
TB19C 000:387 JLINK_IsHalted()  returns FALSE (0001ms, 0185ms total)
TB19C 000:390 JLINK_IsHalted()  returns FALSE (0000ms, 0184ms total)
TB19C 000:392 JLINK_IsHalted()  returns FALSE (0000ms, 0184ms total)
TB19C 000:394 JLINK_IsHalted()  returns FALSE (0000ms, 0184ms total)
TB19C 000:396 JLINK_IsHalted() -- CPU_ReadMem(2 bytes @ 0x20000000)  returns TRUE (0003ms, 0187ms total)
TB19C 000:399 JLINK_ReadReg(R15 (PC))  returns 0x20000000 (0000ms, 0184ms total)
TB19C 000:399 JLINK_ClrBPEx(BPHandle = 0x00000006)  returns 0x00 (0000ms, 0184ms total)
TB19C 000:399 JLINK_ReadReg(R0)  returns 0x00000000 (0000ms, 0184ms total)
TB19C 000:399 JLINK_WriteMem(0x20000164, 0x0400 Bytes, ...) - Data: 01 2B 70 47 10 B5 20 3A C0 F0 0B 80 B1 E8 18 50 ... -- CPU_WriteMem(1024 bytes @ 0x20000164)  returns 0x400 (0012ms, 0196ms total)
TB19C 000:412 JLINK_WriteReg(R0, 0x08000800)  returns 0x00 (0000ms, 0196ms total)
TB19C 000:412 JLINK_WriteReg(R1, 0x00000400)  returns 0x00 (0000ms, 0196ms total)
TB19C 000:412 JLINK_WriteReg(R2, 0x20000164)  returns 0x00 (0000ms, 0196ms total)
TB19C 000:412 JLINK_WriteReg(R3, 0x00000000)  returns 0x00 (0000ms, 0196ms total)
TB19C 000:412 JLINK_WriteReg(R4, 0x00000000)  returns 0x00 (0000ms, 0196ms total)
TB19C 000:412 JLINK_WriteReg(R5, 0x00000000)  returns 0x00 (0000ms, 0196ms total)
TB19C 000:412 JLINK_WriteReg(R6, 0x00000000)  returns 0x00 (0000ms, 0196ms total)
TB19C 000:412 JLINK_WriteReg(R7, 0x00000000)  returns 0x00 (0000ms, 0196ms total)
TB19C 000:412 JLINK_WriteReg(R8, 0x00000000)  returns 0x00 (0000ms, 0196ms total)
TB19C 000:412 JLINK_WriteReg(R9, 0x20000160)  returns 0x00 (0000ms, 0196ms total)
TB19C 000:412 JLINK_WriteReg(R10, 0x00000000)  returns 0x00 (0000ms, 0196ms total)
TB19C 000:412 JLINK_WriteReg(R11, 0x00000000)  returns 0x00 (0000ms, 0196ms total)
TB19C 000:412 JLINK_WriteReg(R12, 0x00000000)  returns 0x00 (0000ms, 0196ms total)
TB19C 000:412 JLINK_WriteReg(R13 (SP), 0x20001000)  returns 0x00 (0001ms, 0197ms total)
TB19C 000:413 JLINK_WriteReg(R14, 0x20000001)  returns 0x00 (0000ms, 0197ms total)
TB19C 000:413 JLINK_WriteReg(R15 (PC), 0x200000F4)  returns 0x00 (0000ms, 0197ms total)
TB19C 000:413 JLINK_WriteReg(XPSR, 0x01000000)  returns 0x00 (0000ms, 0197ms total)
TB19C 000:413 JLINK_WriteReg(MSP, 0x20001000)  returns 0x00 (0000ms, 0197ms total)
TB19C 000:413 JLINK_WriteReg(PSP, 0x20001000)  returns 0x00 (0000ms, 0197ms total)
TB19C 000:413 JLINK_WriteReg(CFBP, 0x00000000)  returns 0x00 (0000ms, 0197ms total)
TB19C 000:413 JLINK_SetBPEx(Addr = 0x20000000, Type = 0xFFFFFFF2)  returns 0x00000007 (0000ms, 0197ms total)
TB19C 000:413 JLINK_Go() -- CPU_ReadMem(4 bytes @ 0xE0001000) (0002ms, 0199ms total)
TB19C 000:415 JLINK_IsHalted()  returns FALSE (0000ms, 0199ms total)
TB19C 000:417 JLINK_IsHalted()  returns FALSE (0000ms, 0199ms total)
TB19C 000:419 JLINK_IsHalted()  returns FALSE (0000ms, 0199ms total)
TB19C 000:421 JLINK_IsHalted()  returns FALSE (0001ms, 0200ms total)
TB19C 000:424 JLINK_IsHalted()  returns FALSE (0000ms, 0199ms total)
TB19C 000:426 JLINK_IsHalted()  returns FALSE (0000ms, 0199ms total)
TB19C 000:428 JLINK_IsHalted()  returns FALSE (0000ms, 0199ms total)
TB19C 000:430 JLINK_IsHalted()  returns FALSE (0000ms, 0199ms total)
TB19C 000:432 JLINK_IsHalted()  returns FALSE (0001ms, 0200ms total)
TB19C 000:435 JLINK_IsHalted()  returns FALSE (0000ms, 0199ms total)
TB19C 000:437 JLINK_IsHalted()  returns FALSE (0000ms, 0199ms total)
TB19C 000:439 JLINK_IsHalted()  returns FALSE (0000ms, 0199ms total)
TB19C 000:441 JLINK_IsHalted()  returns FALSE (0000ms, 0199ms total)
TB19C 000:443 JLINK_IsHalted()  returns FALSE (0000ms, 0199ms total)
TB19C 000:445 JLINK_IsHalted()  returns FALSE (0000ms, 0199ms total)
TB19C 000:447 JLINK_IsHalted() -- CPU_ReadMem(2 bytes @ 0x20000000)  returns TRUE (0003ms, 0202ms total)
TB19C 000:450 JLINK_ReadReg(R15 (PC))  returns 0x20000000 (0000ms, 0199ms total)
TB19C 000:450 JLINK_ClrBPEx(BPHandle = 0x00000007)  returns 0x00 (0000ms, 0199ms total)
TB19C 000:450 JLINK_ReadReg(R0)  returns 0x00000000 (0000ms, 0199ms total)
TB19C 000:450 JLINK_WriteMem(0x20000164, 0x0400 Bytes, ...) - Data: 00 68 40 5D C0 07 F6 D1 2B 2D 02 D0 2D 2D 18 D0 ... -- CPU_WriteMem(1024 bytes @ 0x20000164)  returns 0x400 (0013ms, 0212ms total)
TB19C 000:463 JLINK_WriteReg(R0, 0x08000C00)  returns 0x00 (0000ms, 0212ms total)
TB19C 000:463 JLINK_WriteReg(R1, 0x00000400)  returns 0x00 (0000ms, 0212ms total)
TB19C 000:463 JLINK_WriteReg(R2, 0x20000164)  returns 0x00 (0000ms, 0212ms total)
TB19C 000:463 JLINK_WriteReg(R3, 0x00000000)  returns 0x00 (0000ms, 0212ms total)
TB19C 000:463 JLINK_WriteReg(R4, 0x00000000)  returns 0x00 (0000ms, 0212ms total)
TB19C 000:463 JLINK_WriteReg(R5, 0x00000000)  returns 0x00 (0000ms, 0212ms total)
TB19C 000:463 JLINK_WriteReg(R6, 0x00000000)  returns 0x00 (0000ms, 0212ms total)
TB19C 000:463 JLINK_WriteReg(R7, 0x00000000)  returns 0x00 (0000ms, 0212ms total)
TB19C 000:463 JLINK_WriteReg(R8, 0x00000000)  returns 0x00 (0000ms, 0212ms total)
TB19C 000:463 JLINK_WriteReg(R9, 0x20000160)  returns 0x00 (0001ms, 0213ms total)
TB19C 000:464 JLINK_WriteReg(R10, 0x00000000)  returns 0x00 (0000ms, 0213ms total)
TB19C 000:464 JLINK_WriteReg(R11, 0x00000000)  returns 0x00 (0000ms, 0213ms total)
TB19C 000:464 JLINK_WriteReg(R12, 0x00000000)  returns 0x00 (0000ms, 0213ms total)
TB19C 000:464 JLINK_WriteReg(R13 (SP), 0x20001000)  returns 0x00 (0000ms, 0213ms total)
TB19C 000:464 JLINK_WriteReg(R14, 0x20000001)  returns 0x00 (0000ms, 0213ms total)
TB19C 000:464 JLINK_WriteReg(R15 (PC), 0x200000F4)  returns 0x00 (0000ms, 0213ms total)
TB19C 000:464 JLINK_WriteReg(XPSR, 0x01000000)  returns 0x00 (0000ms, 0213ms total)
TB19C 000:464 JLINK_WriteReg(MSP, 0x20001000)  returns 0x00 (0000ms, 0213ms total)
TB19C 000:464 JLINK_WriteReg(PSP, 0x20001000)  returns 0x00 (0000ms, 0213ms total)
TB19C 000:464 JLINK_WriteReg(CFBP, 0x00000000)  returns 0x00 (0000ms, 0213ms total)
TB19C 000:464 JLINK_SetBPEx(Addr = 0x20000000, Type = 0xFFFFFFF2)  returns 0x00000008 (0000ms, 0213ms total)
TB19C 000:464 JLINK_Go() -- CPU_ReadMem(4 bytes @ 0xE0001000) (0002ms, 0215ms total)
TB19C 000:466 JLINK_IsHalted()  returns FALSE (0001ms, 0216ms total)
TB19C 000:469 JLINK_IsHalted()  returns FALSE (0000ms, 0215ms total)
TB19C 000:471 JLINK_IsHalted()  returns FALSE (0000ms, 0215ms total)
TB19C 000:473 JLINK_IsHalted()  returns FALSE (0001ms, 0216ms total)
TB19C 000:476 JLINK_IsHalted()  returns FALSE (0000ms, 0215ms total)
TB19C 000:478 JLINK_IsHalted()  returns FALSE (0000ms, 0215ms total)
TB19C 000:480 JLINK_IsHalted()  returns FALSE (0000ms, 0215ms total)
TB19C 000:482 JLINK_IsHalted()  returns FALSE (0000ms, 0215ms total)
TB19C 000:484 JLINK_IsHalted()  returns FALSE (0000ms, 0215ms total)
TB19C 000:486 JLINK_IsHalted()  returns FALSE (0000ms, 0215ms total)
TB19C 000:488 JLINK_IsHalted()  returns FALSE (0000ms, 0215ms total)
TB19C 000:490 JLINK_IsHalted()  returns FALSE (0001ms, 0216ms total)
TB19C 000:493 JLINK_IsHalted()  returns FALSE (0000ms, 0215ms total)
TB19C 000:495 JLINK_IsHalted()  returns FALSE (0000ms, 0215ms total)
TB19C 000:497 JLINK_IsHalted()  returns FALSE (0000ms, 0215ms total)
TB19C 000:499 JLINK_IsHalted() -- CPU_ReadMem(2 bytes @ 0x20000000)  returns TRUE (0003ms, 0218ms total)
TB19C 000:502 JLINK_ReadReg(R15 (PC))  returns 0x20000000 (0000ms, 0215ms total)
TB19C 000:502 JLINK_ClrBPEx(BPHandle = 0x00000008)  returns 0x00 (0000ms, 0215ms total)
TB19C 000:502 JLINK_ReadReg(R0)  returns 0x00000000 (0000ms, 0215ms total)
TB19C 000:502 JLINK_WriteMem(0x20000164, 0x0400 Bytes, ...) - Data: 28 46 FF F7 3B FF 4F F4 60 20 CD E9 02 04 01 20 ... -- CPU_WriteMem(1024 bytes @ 0x20000164)  returns 0x400 (0013ms, 0228ms total)
TB19C 000:515 JLINK_WriteReg(R0, 0x08001000)  returns 0x00 (0000ms, 0228ms total)
TB19C 000:515 JLINK_WriteReg(R1, 0x00000400)  returns 0x00 (0000ms, 0228ms total)
TB19C 000:515 JLINK_WriteReg(R2, 0x20000164)  returns 0x00 (0000ms, 0228ms total)
TB19C 000:515 JLINK_WriteReg(R3, 0x00000000)  returns 0x00 (0000ms, 0228ms total)
TB19C 000:515 JLINK_WriteReg(R4, 0x00000000)  returns 0x00 (0000ms, 0228ms total)
TB19C 000:515 JLINK_WriteReg(R5, 0x00000000)  returns 0x00 (0000ms, 0228ms total)
TB19C 000:515 JLINK_WriteReg(R6, 0x00000000)  returns 0x00 (0000ms, 0228ms total)
TB19C 000:515 JLINK_WriteReg(R7, 0x00000000)  returns 0x00 (0000ms, 0228ms total)
TB19C 000:515 JLINK_WriteReg(R8, 0x00000000)  returns 0x00 (0000ms, 0228ms total)
TB19C 000:515 JLINK_WriteReg(R9, 0x20000160)  returns 0x00 (0000ms, 0228ms total)
TB19C 000:515 JLINK_WriteReg(R10, 0x00000000)  returns 0x00 (0000ms, 0228ms total)
TB19C 000:515 JLINK_WriteReg(R11, 0x00000000)  returns 0x00 (0000ms, 0228ms total)
TB19C 000:515 JLINK_WriteReg(R12, 0x00000000)  returns 0x00 (0000ms, 0228ms total)
TB19C 000:516 JLINK_WriteReg(R13 (SP), 0x20001000)  returns 0x00 (0000ms, 0229ms total)
TB19C 000:516 JLINK_WriteReg(R14, 0x20000001)  returns 0x00 (0000ms, 0229ms total)
TB19C 000:516 JLINK_WriteReg(R15 (PC), 0x200000F4)  returns 0x00 (0000ms, 0229ms total)
TB19C 000:516 JLINK_WriteReg(XPSR, 0x01000000)  returns 0x00 (0000ms, 0229ms total)
TB19C 000:516 JLINK_WriteReg(MSP, 0x20001000)  returns 0x00 (0000ms, 0229ms total)
TB19C 000:516 JLINK_WriteReg(PSP, 0x20001000)  returns 0x00 (0000ms, 0229ms total)
TB19C 000:516 JLINK_WriteReg(CFBP, 0x00000000)  returns 0x00 (0000ms, 0229ms total)
TB19C 000:516 JLINK_SetBPEx(Addr = 0x20000000, Type = 0xFFFFFFF2)  returns 0x00000009 (0000ms, 0229ms total)
TB19C 000:516 JLINK_Go() -- CPU_ReadMem(4 bytes @ 0xE0001000) (0002ms, 0231ms total)
TB19C 000:518 JLINK_IsHalted()  returns FALSE (0001ms, 0232ms total)
TB19C 000:521 JLINK_IsHalted()  returns FALSE (0000ms, 0231ms total)
TB19C 000:523 JLINK_IsHalted()  returns FALSE (0000ms, 0231ms total)
TB19C 000:525 JLINK_IsHalted()  returns FALSE (0001ms, 0232ms total)
TB19C 000:528 JLINK_IsHalted()  returns FALSE (0000ms, 0231ms total)
TB19C 000:530 JLINK_IsHalted()  returns FALSE (0000ms, 0231ms total)
TB19C 000:532 JLINK_IsHalted()  returns FALSE (0000ms, 0231ms total)
TB19C 000:534 JLINK_IsHalted()  returns FALSE (0000ms, 0231ms total)
TB19C 000:536 JLINK_IsHalted()  returns FALSE (0000ms, 0231ms total)
TB19C 000:538 JLINK_IsHalted()  returns FALSE (0000ms, 0231ms total)
TB19C 000:540 JLINK_IsHalted()  returns FALSE (0000ms, 0231ms total)
TB19C 000:542 JLINK_IsHalted()  returns FALSE (0000ms, 0231ms total)
TB19C 000:544 JLINK_IsHalted()  returns FALSE (0000ms, 0231ms total)
TB19C 000:546 JLINK_IsHalted()  returns FALSE (0001ms, 0232ms total)
TB19C 000:549 JLINK_IsHalted()  returns FALSE (0000ms, 0231ms total)
TB19C 000:551 JLINK_IsHalted() -- CPU_ReadMem(2 bytes @ 0x20000000)  returns TRUE (0003ms, 0234ms total)
TB19C 000:554 JLINK_ReadReg(R15 (PC))  returns 0x20000000 (0000ms, 0231ms total)
TB19C 000:554 JLINK_ClrBPEx(BPHandle = 0x00000009)  returns 0x00 (0000ms, 0231ms total)
TB19C 000:554 JLINK_ReadReg(R0)  returns 0x00000000 (0000ms, 0231ms total)
TB19C 000:555 JLINK_WriteMem(0x20000164, 0x0400 Bytes, ...) - Data: 8D F8 02 50 69 46 20 46 FF F7 9C FE 31 46 20 46 ... -- CPU_WriteMem(1024 bytes @ 0x20000164)  returns 0x400 (0012ms, 0243ms total)
TB19C 000:567 JLINK_WriteReg(R0, 0x08001400)  returns 0x00 (0000ms, 0243ms total)
TB19C 000:567 JLINK_WriteReg(R1, 0x00000400)  returns 0x00 (0000ms, 0243ms total)
TB19C 000:567 JLINK_WriteReg(R2, 0x20000164)  returns 0x00 (0001ms, 0244ms total)
TB19C 000:568 JLINK_WriteReg(R3, 0x00000000)  returns 0x00 (0000ms, 0244ms total)
TB19C 000:568 JLINK_WriteReg(R4, 0x00000000)  returns 0x00 (0000ms, 0244ms total)
TB19C 000:568 JLINK_WriteReg(R5, 0x00000000)  returns 0x00 (0000ms, 0244ms total)
TB19C 000:568 JLINK_WriteReg(R6, 0x00000000)  returns 0x00 (0000ms, 0244ms total)
TB19C 000:568 JLINK_WriteReg(R7, 0x00000000)  returns 0x00 (0000ms, 0244ms total)
TB19C 000:568 JLINK_WriteReg(R8, 0x00000000)  returns 0x00 (0000ms, 0244ms total)
TB19C 000:568 JLINK_WriteReg(R9, 0x20000160)  returns 0x00 (0000ms, 0244ms total)
TB19C 000:568 JLINK_WriteReg(R10, 0x00000000)  returns 0x00 (0000ms, 0244ms total)
TB19C 000:568 JLINK_WriteReg(R11, 0x00000000)  returns 0x00 (0000ms, 0244ms total)
TB19C 000:568 JLINK_WriteReg(R12, 0x00000000)  returns 0x00 (0000ms, 0244ms total)
TB19C 000:568 JLINK_WriteReg(R13 (SP), 0x20001000)  returns 0x00 (0000ms, 0244ms total)
TB19C 000:568 JLINK_WriteReg(R14, 0x20000001)  returns 0x00 (0000ms, 0244ms total)
TB19C 000:568 JLINK_WriteReg(R15 (PC), 0x200000F4)  returns 0x00 (0001ms, 0245ms total)
TB19C 000:569 JLINK_WriteReg(XPSR, 0x01000000)  returns 0x00 (0000ms, 0245ms total)
TB19C 000:569 JLINK_WriteReg(MSP, 0x20001000)  returns 0x00 (0000ms, 0245ms total)
TB19C 000:569 JLINK_WriteReg(PSP, 0x20001000)  returns 0x00 (0000ms, 0245ms total)
TB19C 000:569 JLINK_WriteReg(CFBP, 0x00000000)  returns 0x00 (0000ms, 0245ms total)
TB19C 000:569 JLINK_SetBPEx(Addr = 0x20000000, Type = 0xFFFFFFF2)  returns 0x0000000A (0000ms, 0245ms total)
TB19C 000:569 JLINK_Go() -- CPU_ReadMem(4 bytes @ 0xE0001000) (0002ms, 0247ms total)
TB19C 000:571 JLINK_IsHalted()  returns FALSE (0000ms, 0247ms total)
TB19C 000:573 JLINK_IsHalted()  returns FALSE (0001ms, 0248ms total)
TB19C 000:576 JLINK_IsHalted()  returns FALSE (0000ms, 0247ms total)
TB19C 000:578 JLINK_IsHalted()  returns FALSE (0000ms, 0247ms total)
TB19C 000:580 JLINK_IsHalted()  returns FALSE (0000ms, 0247ms total)
TB19C 000:582 JLINK_IsHalted()  returns FALSE (0000ms, 0247ms total)
TB19C 000:584 JLINK_IsHalted()  returns FALSE (0000ms, 0247ms total)
TB19C 000:586 JLINK_IsHalted()  returns FALSE (0000ms, 0247ms total)
TB19C 000:588 JLINK_IsHalted()  returns FALSE (0000ms, 0247ms total)
TB19C 000:590 JLINK_IsHalted()  returns FALSE (0000ms, 0247ms total)
TB19C 000:592 JLINK_IsHalted()  returns FALSE (0001ms, 0248ms total)
TB19C 000:595 JLINK_IsHalted()  returns FALSE (0000ms, 0247ms total)
TB19C 000:597 JLINK_IsHalted()  returns FALSE (0000ms, 0247ms total)
TB19C 000:599 JLINK_IsHalted()  returns FALSE (0000ms, 0247ms total)
TB19C 000:601 JLINK_IsHalted()  returns FALSE (0000ms, 0247ms total)
TB19C 000:603 JLINK_IsHalted() -- CPU_ReadMem(2 bytes @ 0x20000000)  returns TRUE (0003ms, 0250ms total)
TB19C 000:606 JLINK_ReadReg(R15 (PC))  returns 0x20000000 (0000ms, 0247ms total)
TB19C 000:606 JLINK_ClrBPEx(BPHandle = 0x0000000A)  returns 0x00 (0000ms, 0247ms total)
TB19C 000:606 JLINK_ReadReg(R0)  returns 0x00000000 (0000ms, 0247ms total)
TB19C 000:606 JLINK_WriteMem(0x20000164, 0x0400 Bytes, ...) - Data: 9D F8 02 10 81 70 0D B0 00 BD 00 00 00 E0 00 08 ... -- CPU_WriteMem(1024 bytes @ 0x20000164)  returns 0x400 (0013ms, 0260ms total)
TB19C 000:619 JLINK_WriteReg(R0, 0x08001800)  returns 0x00 (0000ms, 0260ms total)
TB19C 000:619 JLINK_WriteReg(R1, 0x00000400)  returns 0x00 (0000ms, 0260ms total)
TB19C 000:619 JLINK_WriteReg(R2, 0x20000164)  returns 0x00 (0000ms, 0260ms total)
TB19C 000:619 JLINK_WriteReg(R3, 0x00000000)  returns 0x00 (0000ms, 0260ms total)
TB19C 000:619 JLINK_WriteReg(R4, 0x00000000)  returns 0x00 (0000ms, 0260ms total)
TB19C 000:619 JLINK_WriteReg(R5, 0x00000000)  returns 0x00 (0000ms, 0260ms total)
TB19C 000:619 JLINK_WriteReg(R6, 0x00000000)  returns 0x00 (0001ms, 0261ms total)
TB19C 000:620 JLINK_WriteReg(R7, 0x00000000)  returns 0x00 (0000ms, 0261ms total)
TB19C 000:620 JLINK_WriteReg(R8, 0x00000000)  returns 0x00 (0000ms, 0261ms total)
TB19C 000:620 JLINK_WriteReg(R9, 0x20000160)  returns 0x00 (0000ms, 0261ms total)
TB19C 000:620 JLINK_WriteReg(R10, 0x00000000)  returns 0x00 (0000ms, 0261ms total)
TB19C 000:620 JLINK_WriteReg(R11, 0x00000000)  returns 0x00 (0000ms, 0261ms total)
TB19C 000:620 JLINK_WriteReg(R12, 0x00000000)  returns 0x00 (0000ms, 0261ms total)
TB19C 000:620 JLINK_WriteReg(R13 (SP), 0x20001000)  returns 0x00 (0000ms, 0261ms total)
TB19C 000:620 JLINK_WriteReg(R14, 0x20000001)  returns 0x00 (0000ms, 0261ms total)
TB19C 000:620 JLINK_WriteReg(R15 (PC), 0x200000F4)  returns 0x00 (0000ms, 0261ms total)
TB19C 000:620 JLINK_WriteReg(XPSR, 0x01000000)  returns 0x00 (0000ms, 0261ms total)
TB19C 000:620 JLINK_WriteReg(MSP, 0x20001000)  returns 0x00 (0000ms, 0261ms total)
TB19C 000:620 JLINK_WriteReg(PSP, 0x20001000)  returns 0x00 (0000ms, 0261ms total)
TB19C 000:620 JLINK_WriteReg(CFBP, 0x00000000)  returns 0x00 (0000ms, 0261ms total)
TB19C 000:620 JLINK_SetBPEx(Addr = 0x20000000, Type = 0xFFFFFFF2)  returns 0x0000000B (0000ms, 0261ms total)
TB19C 000:620 JLINK_Go() -- CPU_ReadMem(4 bytes @ 0xE0001000) (0002ms, 0263ms total)
TB19C 000:622 JLINK_IsHalted()  returns FALSE (0001ms, 0264ms total)
TB19C 000:625 JLINK_IsHalted()  returns FALSE (0000ms, 0263ms total)
TB19C 000:627 JLINK_IsHalted()  returns FALSE (0000ms, 0263ms total)
TB19C 000:629 JLINK_IsHalted()  returns FALSE (0000ms, 0263ms total)
TB19C 000:631 JLINK_IsHalted()  returns FALSE (0000ms, 0263ms total)
TB19C 000:633 JLINK_IsHalted()  returns FALSE (0000ms, 0263ms total)
TB19C 000:635 JLINK_IsHalted()  returns FALSE (0000ms, 0263ms total)
TB19C 000:637 JLINK_IsHalted()  returns FALSE (0001ms, 0264ms total)
TB19C 000:640 JLINK_IsHalted()  returns FALSE (0000ms, 0263ms total)
TB19C 000:642 JLINK_IsHalted()  returns FALSE (0000ms, 0263ms total)
TB19C 000:644 JLINK_IsHalted()  returns FALSE (0000ms, 0263ms total)
TB19C 000:646 JLINK_IsHalted()  returns FALSE (0000ms, 0263ms total)
TB19C 000:648 JLINK_IsHalted()  returns FALSE (0000ms, 0263ms total)
TB19C 000:650 JLINK_IsHalted()  returns FALSE (0001ms, 0264ms total)
TB19C 000:652 JLINK_IsHalted()  returns FALSE (0000ms, 0263ms total)
TB19C 000:654 JLINK_IsHalted() -- CPU_ReadMem(2 bytes @ 0x20000000)  returns TRUE (0003ms, 0266ms total)
TB19C 000:657 JLINK_ReadReg(R15 (PC))  returns 0x20000000 (0000ms, 0263ms total)
TB19C 000:657 JLINK_ClrBPEx(BPHandle = 0x0000000B)  returns 0x00 (0000ms, 0263ms total)
TB19C 000:657 JLINK_ReadReg(R0)  returns 0x00000000 (0000ms, 0263ms total)
TB19C 000:657 JLINK_WriteMem(0x20000164, 0x0400 Bytes, ...) - Data: 09 BD 1A 49 88 42 02 D1 01 21 0C 04 0A E0 18 49 ... -- CPU_WriteMem(1024 bytes @ 0x20000164)  returns 0x400 (0013ms, 0276ms total)
TB19C 000:670 JLINK_WriteReg(R0, 0x08001C00)  returns 0x00 (0000ms, 0276ms total)
TB19C 000:670 JLINK_WriteReg(R1, 0x00000400)  returns 0x00 (0000ms, 0276ms total)
TB19C 000:670 JLINK_WriteReg(R2, 0x20000164)  returns 0x00 (0000ms, 0276ms total)
TB19C 000:670 JLINK_WriteReg(R3, 0x00000000)  returns 0x00 (0000ms, 0276ms total)
TB19C 000:670 JLINK_WriteReg(R4, 0x00000000)  returns 0x00 (0000ms, 0276ms total)
TB19C 000:670 JLINK_WriteReg(R5, 0x00000000)  returns 0x00 (0000ms, 0276ms total)
TB19C 000:670 JLINK_WriteReg(R6, 0x00000000)  returns 0x00 (0000ms, 0276ms total)
TB19C 000:670 JLINK_WriteReg(R7, 0x00000000)  returns 0x00 (0000ms, 0276ms total)
TB19C 000:670 JLINK_WriteReg(R8, 0x00000000)  returns 0x00 (0000ms, 0276ms total)
TB19C 000:670 JLINK_WriteReg(R9, 0x20000160)  returns 0x00 (0000ms, 0276ms total)
TB19C 000:670 JLINK_WriteReg(R10, 0x00000000)  returns 0x00 (0000ms, 0276ms total)
TB19C 000:670 JLINK_WriteReg(R11, 0x00000000)  returns 0x00 (0000ms, 0276ms total)
TB19C 000:670 JLINK_WriteReg(R12, 0x00000000)  returns 0x00 (0000ms, 0276ms total)
TB19C 000:670 JLINK_WriteReg(R13 (SP), 0x20001000)  returns 0x00 (0000ms, 0276ms total)
TB19C 000:670 JLINK_WriteReg(R14, 0x20000001)  returns 0x00 (0001ms, 0277ms total)
TB19C 000:671 JLINK_WriteReg(R15 (PC), 0x200000F4)  returns 0x00 (0000ms, 0277ms total)
TB19C 000:671 JLINK_WriteReg(XPSR, 0x01000000)  returns 0x00 (0000ms, 0277ms total)
TB19C 000:671 JLINK_WriteReg(MSP, 0x20001000)  returns 0x00 (0000ms, 0277ms total)
TB19C 000:671 JLINK_WriteReg(PSP, 0x20001000)  returns 0x00 (0000ms, 0277ms total)
TB19C 000:671 JLINK_WriteReg(CFBP, 0x00000000)  returns 0x00 (0000ms, 0277ms total)
TB19C 000:671 JLINK_SetBPEx(Addr = 0x20000000, Type = 0xFFFFFFF2)  returns 0x0000000C (0000ms, 0277ms total)
TB19C 000:671 JLINK_Go() -- CPU_ReadMem(4 bytes @ 0xE0001000) (0002ms, 0279ms total)
TB19C 000:673 JLINK_IsHalted()  returns FALSE (0000ms, 0279ms total)
TB19C 000:676 JLINK_IsHalted()  returns FALSE (0000ms, 0279ms total)
TB19C 000:678 JLINK_IsHalted()  returns FALSE (0001ms, 0280ms total)
TB19C 000:681 JLINK_IsHalted()  returns FALSE (0000ms, 0279ms total)
TB19C 000:683 JLINK_IsHalted()  returns FALSE (0001ms, 0280ms total)
TB19C 000:686 JLINK_IsHalted()  returns FALSE (0000ms, 0279ms total)
TB19C 000:688 JLINK_IsHalted()  returns FALSE (0000ms, 0279ms total)
TB19C 000:690 JLINK_IsHalted()  returns FALSE (0000ms, 0279ms total)
TB19C 000:692 JLINK_IsHalted()  returns FALSE (0000ms, 0279ms total)
TB19C 000:694 JLINK_IsHalted()  returns FALSE (0000ms, 0279ms total)
TB19C 000:696 JLINK_IsHalted()  returns FALSE (0000ms, 0279ms total)
TB19C 000:698 JLINK_IsHalted()  returns FALSE (0000ms, 0279ms total)
TB19C 000:700 JLINK_IsHalted()  returns FALSE (0001ms, 0280ms total)
TB19C 000:703 JLINK_IsHalted()  returns FALSE (0000ms, 0279ms total)
TB19C 000:705 JLINK_IsHalted() -- CPU_ReadMem(2 bytes @ 0x20000000)  returns TRUE (0003ms, 0282ms total)
TB19C 000:708 JLINK_ReadReg(R15 (PC))  returns 0x20000000 (0000ms, 0279ms total)
TB19C 000:708 JLINK_ClrBPEx(BPHandle = 0x0000000C)  returns 0x00 (0000ms, 0279ms total)
TB19C 000:708 JLINK_ReadReg(R0)  returns 0x00000000 (0000ms, 0279ms total)
TB19C 000:708 JLINK_WriteMem(0x20000164, 0x0400 Bytes, ...) - Data: 2D E9 F7 4F 14 46 94 B0 00 21 C4 E9 02 11 15 99 ... -- CPU_WriteMem(1024 bytes @ 0x20000164)  returns 0x400 (0013ms, 0292ms total)
TB19C 000:721 JLINK_WriteReg(R0, 0x08002000)  returns 0x00 (0000ms, 0292ms total)
TB19C 000:721 JLINK_WriteReg(R1, 0x00000400)  returns 0x00 (0000ms, 0292ms total)
TB19C 000:721 JLINK_WriteReg(R2, 0x20000164)  returns 0x00 (0000ms, 0292ms total)
TB19C 000:721 JLINK_WriteReg(R3, 0x00000000)  returns 0x00 (0000ms, 0292ms total)
TB19C 000:721 JLINK_WriteReg(R4, 0x00000000)  returns 0x00 (0000ms, 0292ms total)
TB19C 000:721 JLINK_WriteReg(R5, 0x00000000)  returns 0x00 (0000ms, 0292ms total)
TB19C 000:721 JLINK_WriteReg(R6, 0x00000000)  returns 0x00 (0000ms, 0292ms total)
TB19C 000:721 JLINK_WriteReg(R7, 0x00000000)  returns 0x00 (0000ms, 0292ms total)
TB19C 000:721 JLINK_WriteReg(R8, 0x00000000)  returns 0x00 (0000ms, 0292ms total)
TB19C 000:721 JLINK_WriteReg(R9, 0x20000160)  returns 0x00 (0000ms, 0292ms total)
TB19C 000:721 JLINK_WriteReg(R10, 0x00000000)  returns 0x00 (0000ms, 0292ms total)
TB19C 000:721 JLINK_WriteReg(R11, 0x00000000)  returns 0x00 (0000ms, 0292ms total)
TB19C 000:721 JLINK_WriteReg(R12, 0x00000000)  returns 0x00 (0000ms, 0292ms total)
TB19C 000:721 JLINK_WriteReg(R13 (SP), 0x20001000)  returns 0x00 (0000ms, 0292ms total)
TB19C 000:722 JLINK_WriteReg(R14, 0x20000001)  returns 0x00 (0000ms, 0292ms total)
TB19C 000:722 JLINK_WriteReg(R15 (PC), 0x200000F4)  returns 0x00 (0000ms, 0292ms total)
TB19C 000:722 JLINK_WriteReg(XPSR, 0x01000000)  returns 0x00 (0000ms, 0292ms total)
TB19C 000:722 JLINK_WriteReg(MSP, 0x20001000)  returns 0x00 (0000ms, 0292ms total)
TB19C 000:722 JLINK_WriteReg(PSP, 0x20001000)  returns 0x00 (0000ms, 0292ms total)
TB19C 000:722 JLINK_WriteReg(CFBP, 0x00000000)  returns 0x00 (0000ms, 0292ms total)
TB19C 000:722 JLINK_SetBPEx(Addr = 0x20000000, Type = 0xFFFFFFF2)  returns 0x0000000D (0000ms, 0292ms total)
TB19C 000:722 JLINK_Go() -- CPU_ReadMem(4 bytes @ 0xE0001000) (0002ms, 0294ms total)
TB19C 000:724 JLINK_IsHalted()  returns FALSE (0001ms, 0295ms total)
TB19C 000:727 JLINK_IsHalted()  returns FALSE (0000ms, 0294ms total)
TB19C 000:729 JLINK_IsHalted()  returns FALSE (0000ms, 0294ms total)
TB19C 000:731 JLINK_IsHalted()  returns FALSE (0000ms, 0294ms total)
TB19C 000:733 JLINK_IsHalted()  returns FALSE (0000ms, 0294ms total)
TB19C 000:735 JLINK_IsHalted()  returns FALSE (0000ms, 0294ms total)
TB19C 000:737 JLINK_IsHalted()  returns FALSE (0000ms, 0294ms total)
TB19C 000:739 JLINK_IsHalted()  returns FALSE (0000ms, 0294ms total)
TB19C 000:741 JLINK_IsHalted()  returns FALSE (0000ms, 0294ms total)
TB19C 000:743 JLINK_IsHalted()  returns FALSE (0000ms, 0294ms total)
TB19C 000:745 JLINK_IsHalted()  returns FALSE (0000ms, 0294ms total)
TB19C 000:747 JLINK_IsHalted()  returns FALSE (0000ms, 0294ms total)
TB19C 000:749 JLINK_IsHalted()  returns FALSE (0001ms, 0295ms total)
TB19C 000:752 JLINK_IsHalted()  returns FALSE (0000ms, 0294ms total)
TB19C 000:754 JLINK_IsHalted()  returns FALSE (0000ms, 0294ms total)
TB19C 000:756 JLINK_IsHalted() -- CPU_ReadMem(2 bytes @ 0x20000000)  returns TRUE (0003ms, 0297ms total)
TB19C 000:759 JLINK_ReadReg(R15 (PC))  returns 0x20000000 (0000ms, 0294ms total)
TB19C 000:759 JLINK_ClrBPEx(BPHandle = 0x0000000D)  returns 0x00 (0000ms, 0294ms total)
TB19C 000:759 JLINK_ReadReg(R0)  returns 0x00000000 (0000ms, 0294ms total)
TB19C 000:759 JLINK_WriteMem(0x20000164, 0x0400 Bytes, ...) - Data: FF 32 28 46 31 46 06 F0 F8 FA 1B 4A 90 45 0A DA ... -- CPU_WriteMem(1024 bytes @ 0x20000164)  returns 0x400 (0013ms, 0307ms total)
TB19C 000:772 JLINK_WriteReg(R0, 0x08002400)  returns 0x00 (0000ms, 0307ms total)
TB19C 000:772 JLINK_WriteReg(R1, 0x00000400)  returns 0x00 (0000ms, 0307ms total)
TB19C 000:772 JLINK_WriteReg(R2, 0x20000164)  returns 0x00 (0000ms, 0307ms total)
TB19C 000:772 JLINK_WriteReg(R3, 0x00000000)  returns 0x00 (0000ms, 0307ms total)
TB19C 000:772 JLINK_WriteReg(R4, 0x00000000)  returns 0x00 (0000ms, 0307ms total)
TB19C 000:772 JLINK_WriteReg(R5, 0x00000000)  returns 0x00 (0000ms, 0307ms total)
TB19C 000:772 JLINK_WriteReg(R6, 0x00000000)  returns 0x00 (0000ms, 0307ms total)
TB19C 000:772 JLINK_WriteReg(R7, 0x00000000)  returns 0x00 (0000ms, 0307ms total)
TB19C 000:772 JLINK_WriteReg(R8, 0x00000000)  returns 0x00 (0000ms, 0307ms total)
TB19C 000:772 JLINK_WriteReg(R9, 0x20000160)  returns 0x00 (0000ms, 0307ms total)
TB19C 000:772 JLINK_WriteReg(R10, 0x00000000)  returns 0x00 (0000ms, 0307ms total)
TB19C 000:772 JLINK_WriteReg(R11, 0x00000000)  returns 0x00 (0000ms, 0307ms total)
TB19C 000:773 JLINK_WriteReg(R12, 0x00000000)  returns 0x00 (0000ms, 0307ms total)
